time	V(n009)	V(n010)	Ic(Q5)	Ic(Q6)	Ic(Q11)	Ic(Q12)
0.000000000000000e+00	1.502770e+01	1.502844e+01	-4.527815e-03	4.223154e-03	-4.554136e-03	4.188047e-03
1.364285714286472e-06	1.512088e+01	1.502949e+01	-4.524007e-03	4.226577e-03	-4.554133e-03	4.188052e-03
2.728571428572944e-06	1.521403e+01	1.503054e+01	-4.520202e-03	4.229998e-03	-4.554130e-03	4.188056e-03
4.092857142859416e-06	1.530716e+01	1.503158e+01	-4.516399e-03	4.233416e-03	-4.554128e-03	4.188061e-03
5.457142857145888e-06	1.540027e+01	1.503263e+01	-4.512598e-03	4.236830e-03	-4.554125e-03	4.188066e-03
6.821428571432360e-06	1.549335e+01	1.503368e+01	-4.508801e-03	4.240242e-03	-4.554123e-03	4.188071e-03
8.185714285718831e-06	1.558641e+01	1.503473e+01	-4.505005e-03	4.243651e-03	-4.554121e-03	4.188076e-03
9.550000000005301e-06	1.567945e+01	1.503578e+01	-4.501213e-03	4.247057e-03	-4.554118e-03	4.188081e-03
1.396428571429352e-05	1.598063e+01	1.503918e+01	-4.488947e-03	4.258071e-03	-4.554112e-03	4.188099e-03
1.837857142858173e-05	1.628051e+01	1.504256e+01	-4.476752e-03	4.269015e-03	-4.554105e-03	4.188117e-03
2.279285714286995e-05	1.657908e+01	1.504592e+01	-4.464629e-03	4.279892e-03	-4.554100e-03	4.188136e-03
2.720714285715817e-05	1.687636e+01	1.504927e+01	-4.452576e-03	4.290699e-03	-4.554095e-03	4.188156e-03
3.162142857144639e-05	1.717234e+01	1.505259e+01	-4.440595e-03	4.301438e-03	-4.554090e-03	4.188177e-03
3.603571428573460e-05	1.746701e+01	1.505589e+01	-4.428684e-03	4.312108e-03	-4.554086e-03	4.188199e-03
4.045000000002280e-05	1.776039e+01	1.505917e+01	-4.416845e-03	4.322710e-03	-4.554082e-03	4.188222e-03
4.416428571431062e-05	1.800547e+01	1.506190e+01	-4.406969e-03	4.331550e-03	-4.554079e-03	4.188242e-03
4.787857142859844e-05	1.824861e+01	1.506461e+01	-4.397187e-03	4.340303e-03	-4.554077e-03	4.188263e-03
5.159285714288626e-05	1.848980e+01	1.506728e+01	-4.387497e-03	4.348971e-03	-4.554074e-03	4.188284e-03
5.530714285717408e-05	1.872905e+01	1.506993e+01	-4.377900e-03	4.357552e-03	-4.554072e-03	4.188305e-03
5.902142857146190e-05	1.896634e+01	1.507255e+01	-4.368395e-03	4.366048e-03	-4.554070e-03	4.188328e-03
6.273571428574972e-05	1.920168e+01	1.507514e+01	-4.358984e-03	4.374457e-03	-4.554068e-03	4.188350e-03
6.645000000003753e-05	1.943508e+01	1.507771e+01	-4.349665e-03	4.382780e-03	-4.554066e-03	4.188374e-03
7.002142857146812e-05	1.965719e+01	1.508015e+01	-4.340812e-03	4.390686e-03	-4.554065e-03	4.188397e-03
7.359285714289871e-05	1.987669e+01	1.508256e+01	-4.332077e-03	4.398482e-03	-4.554064e-03	4.188420e-03
7.716428571432932e-05	2.009358e+01	1.508494e+01	-4.323462e-03	4.406171e-03	-4.554063e-03	4.188444e-03
8.073571428575991e-05	2.030785e+01	1.508730e+01	-4.314967e-03	4.413750e-03	-4.554062e-03	4.188468e-03
8.430714285719050e-05	2.051951e+01	1.508963e+01	-4.306591e-03	4.421222e-03	-4.554060e-03	4.188493e-03
8.787857142862110e-05	2.072856e+01	1.509193e+01	-4.298334e-03	4.428584e-03	-4.554059e-03	4.188519e-03
9.145000000005169e-05	2.093499e+01	1.509421e+01	-4.290197e-03	4.435839e-03	-4.554058e-03	4.188545e-03
9.297857142862399e-05	2.102234e+01	1.509517e+01	-4.286759e-03	4.438903e-03	-4.554058e-03	4.188556e-03
9.450714285719628e-05	2.110911e+01	1.509613e+01	-4.283347e-03	4.441944e-03	-4.554058e-03	4.188567e-03
9.603571428576858e-05	2.119531e+01	1.509709e+01	-4.279962e-03	4.444962e-03	-4.554057e-03	4.188578e-03
9.756428571434087e-05	2.128093e+01	1.509804e+01	-4.276602e-03	4.447956e-03	-4.554057e-03	4.188589e-03
9.909285714291316e-05	2.136597e+01	1.509898e+01	-4.273268e-03	4.450927e-03	-4.554057e-03	4.188601e-03
1.006214285714855e-04	2.145044e+01	1.509993e+01	-4.269960e-03	4.453875e-03	-4.554056e-03	4.188612e-03
1.021500000000578e-04	2.153433e+01	1.510086e+01	-4.266678e-03	4.456799e-03	-4.554056e-03	4.188624e-03
1.058071428572027e-04	2.173278e+01	1.510308e+01	-4.258928e-03	4.463704e-03	-4.554055e-03	4.188652e-03
1.094642857143476e-04	2.192742e+01	1.510527e+01	-4.251348e-03	4.470457e-03	-4.554055e-03	4.188681e-03
1.131214285714925e-04	2.211823e+01	1.510743e+01	-4.243939e-03	4.477059e-03	-4.554054e-03	4.188709e-03
1.167785714286375e-04	2.230523e+01	1.510956e+01	-4.236700e-03	4.483509e-03	-4.554054e-03	4.188738e-03
1.204357142857824e-04	2.248840e+01	1.511166e+01	-4.229632e-03	4.489807e-03	-4.554053e-03	4.188768e-03
1.240928571429273e-04	2.266775e+01	1.511373e+01	-4.222735e-03	4.495954e-03	-4.554053e-03	4.188798e-03
1.277500000000723e-04	2.284329e+01	1.511578e+01	-4.216009e-03	4.501949e-03	-4.554052e-03	4.188828e-03
1.315500000000744e-04	2.302126e+01	1.511787e+01	-4.209217e-03	4.508004e-03	-4.554052e-03	4.188859e-03
1.353500000000766e-04	2.319438e+01	1.511992e+01	-4.202640e-03	4.513871e-03	-4.554052e-03	4.188890e-03
1.391500000000787e-04	2.336268e+01	1.512194e+01	-4.196277e-03	4.519549e-03	-4.554051e-03	4.188922e-03
1.429500000000809e-04	2.352614e+01	1.512393e+01	-4.190130e-03	4.525040e-03	-4.554051e-03	4.188953e-03
1.467500000000830e-04	2.368476e+01	1.512587e+01	-4.184198e-03	4.530342e-03	-4.554051e-03	4.188985e-03
1.505500000000852e-04	2.383854e+01	1.512778e+01	-4.178480e-03	4.535456e-03	-4.554050e-03	4.189016e-03
1.543500000000873e-04	2.398749e+01	1.512966e+01	-4.172978e-03	4.540381e-03	-4.554050e-03	4.189048e-03
1.583214285715181e-04	2.413762e+01	1.513157e+01	-4.167474e-03	4.545315e-03	-4.554050e-03	4.189081e-03
1.622928571429490e-04	2.428182e+01	1.513344e+01	-4.162231e-03	4.550022e-03	-4.554050e-03	4.189113e-03
1.662642857143798e-04	2.442009e+01	1.513525e+01	-4.157251e-03	4.554500e-03	-4.554050e-03	4.189144e-03
1.702357142858106e-04	2.455243e+01	1.513701e+01	-4.152533e-03	4.558752e-03	-4.554049e-03	4.189175e-03
1.742071428572414e-04	2.467884e+01	1.513872e+01	-4.148078e-03	4.562775e-03	-4.554049e-03	4.189205e-03
1.781785714286723e-04	2.479932e+01	1.514037e+01	-4.143884e-03	4.566571e-03	-4.554049e-03	4.189235e-03
1.821500000001031e-04	2.491388e+01	1.514197e+01	-4.139953e-03	4.570139e-03	-4.554049e-03	4.189264e-03
1.853500000001049e-04	2.500160e+01	1.514321e+01	-4.136988e-03	4.572839e-03	-4.554049e-03	4.189286e-03
1.885500000001067e-04	2.508519e+01	1.514440e+01	-4.134203e-03	4.575382e-03	-4.554049e-03	4.189307e-03
1.917500000001085e-04	2.516467e+01	1.514555e+01	-4.131597e-03	4.577768e-03	-4.554049e-03	4.189327e-03
1.949500000001103e-04	2.524003e+01	1.514665e+01	-4.129171e-03	4.579996e-03	-4.554049e-03	4.189346e-03
1.981500000001121e-04	2.531126e+01	1.514770e+01	-4.126925e-03	4.582067e-03	-4.554049e-03	4.189364e-03
2.013500000001139e-04	2.537838e+01	1.514870e+01	-4.124859e-03	4.583982e-03	-4.554048e-03	4.189381e-03
2.045500000001158e-04	2.544138e+01	1.514965e+01	-4.122973e-03	4.585739e-03	-4.554048e-03	4.189397e-03
2.097642857144044e-04	2.553503e+01	1.515110e+01	-4.120295e-03	4.588259e-03	-4.554048e-03	4.189420e-03
2.149785714286931e-04	2.561734e+01	1.515237e+01	-4.118095e-03	4.590346e-03	-4.554048e-03	4.189439e-03
2.201928571429817e-04	2.568832e+01	1.515346e+01	-4.116374e-03	4.592000e-03	-4.554048e-03	4.189454e-03
2.254071428572704e-04	2.574797e+01	1.515438e+01	-4.115130e-03	4.593221e-03	-4.554048e-03	4.189464e-03
2.306214285715591e-04	2.579628e+01	1.515513e+01	-4.114364e-03	4.594010e-03	-4.554048e-03	4.189469e-03
2.358357142858478e-04	2.583326e+01	1.515570e+01	-4.114076e-03	4.594365e-03	-4.554048e-03	4.189470e-03
2.410500000001364e-04	2.585890e+01	1.515610e+01	-4.114266e-03	4.594287e-03	-4.554048e-03	4.189467e-03
2.473642857144257e-04	2.587456e+01	1.515628e+01	-4.115135e-03	4.593598e-03	-4.554048e-03	4.189455e-03
2.536785714287150e-04	2.587346e+01	1.515620e+01	-4.116666e-03	4.592278e-03	-4.554048e-03	4.189438e-03
2.599928571430043e-04	2.585559e+01	1.515584e+01	-4.118860e-03	4.590326e-03	-4.554048e-03	4.189415e-03
2.663071428572936e-04	2.582096e+01	1.515521e+01	-4.121717e-03	4.587744e-03	-4.554048e-03	4.189387e-03
2.726214285715829e-04	2.576957e+01	1.515430e+01	-4.125236e-03	4.584530e-03	-4.554048e-03	4.189354e-03
2.789357142858722e-04	2.570141e+01	1.515313e+01	-4.129418e-03	4.580685e-03	-4.554048e-03	4.189315e-03
2.852500000001615e-04	2.561649e+01	1.515168e+01	-4.134263e-03	4.576209e-03	-4.554049e-03	4.189271e-03
2.883500000001632e-04	2.556869e+01	1.515089e+01	-4.136867e-03	4.573790e-03	-4.554049e-03	4.189248e-03
2.914500000001650e-04	2.551694e+01	1.515005e+01	-4.139618e-03	4.571226e-03	-4.554049e-03	4.189225e-03
2.945500000001667e-04	2.546124e+01	1.514917e+01	-4.142518e-03	4.568517e-03	-4.554049e-03	4.189202e-03
2.976500000001685e-04	2.540159e+01	1.514823e+01	-4.145566e-03	4.565665e-03	-4.554049e-03	4.189178e-03
3.007500000001702e-04	2.533799e+01	1.514724e+01	-4.148761e-03	4.562667e-03	-4.554049e-03	4.189153e-03
3.038500000001720e-04	2.527043e+01	1.514621e+01	-4.152105e-03	4.559526e-03	-4.554049e-03	4.189128e-03
3.069500000001738e-04	2.519893e+01	1.514513e+01	-4.155597e-03	4.556240e-03	-4.554050e-03	4.189103e-03
3.110928571430333e-04	2.509719e+01	1.514361e+01	-4.160491e-03	4.551624e-03	-4.554050e-03	4.189069e-03
3.152357142858927e-04	2.498879e+01	1.514203e+01	-4.165630e-03	4.546769e-03	-4.554050e-03	4.189034e-03
3.193785714287522e-04	2.487371e+01	1.514039e+01	-4.171014e-03	4.541675e-03	-4.554050e-03	4.189000e-03
3.235214285716117e-04	2.475195e+01	1.513869e+01	-4.176642e-03	4.536341e-03	-4.554051e-03	4.188965e-03
3.276642857144712e-04	2.462353e+01	1.513693e+01	-4.182515e-03	4.530767e-03	-4.554051e-03	4.188930e-03
3.318071428573307e-04	2.448843e+01	1.513510e+01	-4.188632e-03	4.524955e-03	-4.554051e-03	4.188895e-03
3.359500000001902e-04	2.434666e+01	1.513321e+01	-4.194994e-03	4.518902e-03	-4.554052e-03	4.188860e-03
3.398928571430496e-04	2.420578e+01	1.513137e+01	-4.201266e-03	4.512931e-03	-4.554052e-03	4.188827e-03
3.438357142859089e-04	2.405945e+01	1.512949e+01	-4.207735e-03	4.506768e-03	-4.554053e-03	4.188795e-03
3.477785714287683e-04	2.390768e+01	1.512757e+01	-4.214403e-03	4.500413e-03	-4.554053e-03	4.188763e-03
3.517214285716277e-04	2.375046e+01	1.512560e+01	-4.221270e-03	4.493866e-03	-4.554054e-03	4.188731e-03
3.556642857144871e-04	2.358780e+01	1.512360e+01	-4.228334e-03	4.487127e-03	-4.554054e-03	4.188699e-03
3.596071428573465e-04	2.341969e+01	1.512156e+01	-4.235597e-03	4.480197e-03	-4.554055e-03	4.188668e-03
3.635500000002058e-04	2.324615e+01	1.511947e+01	-4.243058e-03	4.473074e-03	-4.554055e-03	4.188637e-03
3.673500000002080e-04	2.307404e+01	1.511743e+01	-4.250425e-03	4.466041e-03	-4.554056e-03	4.188608e-03
3.711500000002101e-04	2.289758e+01	1.511536e+01	-4.257950e-03	4.458857e-03	-4.554057e-03	4.188579e-03
3.749500000002123e-04	2.271676e+01	1.511326e+01	-4.265634e-03	4.451523e-03	-4.554058e-03	4.188551e-03
3.787500000002144e-04	2.253157e+01	1.511113e+01	-4.273477e-03	4.444038e-03	-4.554058e-03	4.188523e-03
3.825500000002166e-04	2.234203e+01	1.510896e+01	-4.281478e-03	4.436402e-03	-4.554059e-03	4.188496e-03
3.863500000002187e-04	2.214812e+01	1.510676e+01	-4.289638e-03	4.428616e-03	-4.554060e-03	4.188469e-03
3.901500000002209e-04	2.194985e+01	1.510454e+01	-4.297956e-03	4.420679e-03	-4.554061e-03	4.188443e-03
3.928928571430796e-04	2.180435e+01	1.510291e+01	-4.304047e-03	4.414869e-03	-4.554062e-03	4.188424e-03
3.956357142859383e-04	2.165693e+01	1.510127e+01	-4.310207e-03	4.408994e-03	-4.554063e-03	4.188406e-03
3.983785714287970e-04	2.150760e+01	1.509961e+01	-4.316436e-03	4.403055e-03	-4.554064e-03	4.188388e-03
4.011214285716556e-04	2.135636e+01	1.509794e+01	-4.322734e-03	4.397051e-03	-4.554065e-03	4.188370e-03
4.038642857145144e-04	2.120321e+01	1.509625e+01	-4.329102e-03	4.390982e-03	-4.554067e-03	4.188353e-03
4.066071428573731e-04	2.104814e+01	1.509454e+01	-4.335539e-03	4.384849e-03	-4.554068e-03	4.188336e-03
4.093500000002318e-04	2.089116e+01	1.509282e+01	-4.342045e-03	4.378652e-03	-4.554069e-03	4.188319e-03
4.130071428573767e-04	2.067900e+01	1.509051e+01	-4.350823e-03	4.370293e-03	-4.554071e-03	4.188297e-03
4.166642857145216e-04	2.046413e+01	1.508816e+01	-4.359698e-03	4.361845e-03	-4.554073e-03	4.188276e-03
4.203214285716665e-04	2.024656e+01	1.508579e+01	-4.368669e-03	4.353310e-03	-4.554075e-03	4.188255e-03
4.239785714288115e-04	2.002629e+01	1.508339e+01	-4.377736e-03	4.344686e-03	-4.554077e-03	4.188235e-03
4.276357142859564e-04	1.980331e+01	1.508096e+01	-4.386900e-03	4.335975e-03	-4.554080e-03	4.188216e-03
4.312928571431013e-04	1.957762e+01	1.507850e+01	-4.396161e-03	4.327175e-03	-4.554083e-03	4.188197e-03
4.349500000002463e-04	1.934923e+01	1.507602e+01	-4.405518e-03	4.318287e-03	-4.554086e-03	4.188179e-03
4.387642857145341e-04	1.910855e+01	1.507340e+01	-4.415365e-03	4.308938e-03	-4.554089e-03	4.188160e-03
4.425785714288220e-04	1.886587e+01	1.507074e+01	-4.425280e-03	4.299530e-03	-4.554093e-03	4.188142e-03
4.463928571431099e-04	1.862121e+01	1.506807e+01	-4.435262e-03	4.290063e-03	-4.554097e-03	4.188125e-03
4.502071428573978e-04	1.837456e+01	1.506536e+01	-4.445313e-03	4.280536e-03	-4.554102e-03	4.188109e-03
4.540214285716856e-04	1.812592e+01	1.506262e+01	-4.455432e-03	4.270949e-03	-4.554107e-03	4.188093e-03
4.578357142859735e-04	1.787530e+01	1.505986e+01	-4.465619e-03	4.261303e-03	-4.554112e-03	4.188078e-03
4.616500000002614e-04	1.762268e+01	1.505707e+01	-4.475874e-03	4.251597e-03	-4.554118e-03	4.188064e-03
4.667071428574071e-04	1.728510e+01	1.505331e+01	-4.489560e-03	4.238653e-03	-4.554127e-03	4.188047e-03
4.717642857145528e-04	1.694612e+01	1.504953e+01	-4.503282e-03	4.225685e-03	-4.554136e-03	4.188030e-03
4.768214285716985e-04	1.660573e+01	1.504572e+01	-4.517042e-03	4.212692e-03	-4.554147e-03	4.188015e-03
4.818785714288443e-04	1.626394e+01	1.504189e+01	-4.530838e-03	4.199674e-03	-4.554159e-03	4.188001e-03
4.869357142859900e-04	1.592075e+01	1.503803e+01	-4.544671e-03	4.186631e-03	-4.554172e-03	4.187989e-03
4.919928571431357e-04	1.557615e+01	1.503415e+01	-4.558541e-03	4.173564e-03	-4.554186e-03	4.187977e-03
4.970500000002814e-04	1.523015e+01	1.503024e+01	-4.572447e-03	4.160473e-03	-4.554200e-03	4.187967e-03
4.981928571431392e-04	1.515211e+01	1.502936e+01	-4.575582e-03	4.157524e-03	-4.554204e-03	4.187965e-03
4.993357142859971e-04	1.507407e+01	1.502848e+01	-4.578715e-03	4.154576e-03	-4.554208e-03	4.187963e-03
5.004785714288548e-04	1.499603e+01	1.502760e+01	-4.581847e-03	4.151631e-03	-4.554212e-03	4.187961e-03
5.016214285717126e-04	1.491799e+01	1.502672e+01	-4.584978e-03	4.148687e-03	-4.554215e-03	4.187959e-03
5.027642857145703e-04	1.483997e+01	1.502584e+01	-4.588107e-03	4.145745e-03	-4.554219e-03	4.187957e-03
5.039071428574282e-04	1.476194e+01	1.502496e+01	-4.591235e-03	4.142804e-03	-4.554223e-03	4.187955e-03
5.050500000002860e-04	1.468392e+01	1.502408e+01	-4.594362e-03	4.139865e-03	-4.554227e-03	4.187954e-03
5.117500000002898e-04	1.422707e+01	1.501896e+01	-4.612654e-03	4.122688e-03	-4.554251e-03	4.187944e-03
5.162500000002923e-04	1.392038e+01	1.501552e+01	-4.624913e-03	4.111185e-03	-4.554268e-03	4.187938e-03
5.207500000002948e-04	1.361519e+01	1.501213e+01	-4.637096e-03	4.099763e-03	-4.554286e-03	4.187933e-03
5.252500000002974e-04	1.331148e+01	1.500878e+01	-4.649204e-03	4.088422e-03	-4.554305e-03	4.187929e-03
5.297500000002999e-04	1.300928e+01	1.500546e+01	-4.661236e-03	4.077161e-03	-4.554324e-03	4.187925e-03
5.342500000003025e-04	1.270856e+01	1.500218e+01	-4.673193e-03	4.065981e-03	-4.554344e-03	4.187921e-03
5.387500000003050e-04	1.240934e+01	1.499894e+01	-4.685074e-03	4.054882e-03	-4.554365e-03	4.187918e-03
5.432500000003076e-04	1.211161e+01	1.499573e+01	-4.696879e-03	4.043863e-03	-4.554386e-03	4.187915e-03
5.469500000003097e-04	1.186872e+01	1.499314e+01	-4.706496e-03	4.034894e-03	-4.554404e-03	4.187913e-03
5.506500000003118e-04	1.162787e+01	1.499059e+01	-4.716022e-03	4.026019e-03	-4.554423e-03	4.187911e-03
5.543500000003139e-04	1.138905e+01	1.498807e+01	-4.725455e-03	4.017238e-03	-4.554442e-03	4.187909e-03
5.580500000003160e-04	1.115227e+01	1.498559e+01	-4.734797e-03	4.008551e-03	-4.554460e-03	4.187908e-03
5.617500000003181e-04	1.091754e+01	1.498314e+01	-4.744046e-03	3.999959e-03	-4.554480e-03	4.187906e-03
5.654500000003202e-04	1.068483e+01	1.498073e+01	-4.753203e-03	3.991460e-03	-4.554499e-03	4.187905e-03
5.691500000003223e-04	1.045417e+01	1.497836e+01	-4.762269e-03	3.983055e-03	-4.554519e-03	4.187904e-03
5.726928571431814e-04	1.023567e+01	1.497612e+01	-4.770844e-03	3.975113e-03	-4.554538e-03	4.187903e-03
5.762357142860406e-04	1.001983e+01	1.497392e+01	-4.779304e-03	3.967287e-03	-4.554558e-03	4.187902e-03
5.797785714288997e-04	9.806654e+00	1.497175e+01	-4.787649e-03	3.959579e-03	-4.554577e-03	4.187901e-03
5.833214285717588e-04	9.596135e+00	1.496962e+01	-4.795879e-03	3.951987e-03	-4.554597e-03	4.187900e-03
5.868642857146181e-04	9.388276e+00	1.496752e+01	-4.803993e-03	3.944512e-03	-4.554617e-03	4.187899e-03
5.904071428574772e-04	9.183076e+00	1.496546e+01	-4.811992e-03	3.937155e-03	-4.554637e-03	4.187899e-03
5.939500000003363e-04	8.980536e+00	1.496343e+01	-4.819876e-03	3.929914e-03	-4.554657e-03	4.187898e-03
5.968357142860523e-04	8.817879e+00	1.496180e+01	-4.826199e-03	3.924116e-03	-4.554673e-03	4.187897e-03
5.997214285717681e-04	8.657418e+00	1.496020e+01	-4.832428e-03	3.918412e-03	-4.554690e-03	4.187897e-03
6.026071428574841e-04	8.499153e+00	1.495862e+01	-4.838564e-03	3.912804e-03	-4.554707e-03	4.187897e-03
6.054928571432000e-04	8.343084e+00	1.495706e+01	-4.844607e-03	3.907290e-03	-4.554723e-03	4.187896e-03
6.083785714289159e-04	8.189213e+00	1.495553e+01	-4.850557e-03	3.901870e-03	-4.554740e-03	4.187896e-03
6.112642857146319e-04	8.037537e+00	1.495402e+01	-4.856414e-03	3.896546e-03	-4.554756e-03	4.187895e-03
6.141500000003478e-04	7.888058e+00	1.495253e+01	-4.862178e-03	3.891316e-03	-4.554773e-03	4.187895e-03
6.176928571432069e-04	7.707738e+00	1.495074e+01	-4.869119e-03	3.885032e-03	-4.554793e-03	4.187895e-03
6.212357142860661e-04	7.531315e+00	1.494899e+01	-4.875898e-03	3.878914e-03	-4.554814e-03	4.187894e-03
6.247785714289252e-04	7.358791e+00	1.494727e+01	-4.882514e-03	3.872964e-03	-4.554834e-03	4.187894e-03
6.283214285717843e-04	7.190166e+00	1.494559e+01	-4.888968e-03	3.867179e-03	-4.554854e-03	4.187893e-03
6.318642857146436e-04	7.025438e+00	1.494395e+01	-4.895259e-03	3.861562e-03	-4.554874e-03	4.187893e-03
6.354071428575027e-04	6.864609e+00	1.494234e+01	-4.901388e-03	3.856111e-03	-4.554893e-03	4.187893e-03
6.389500000003618e-04	6.707678e+00	1.494077e+01	-4.907353e-03	3.850827e-03	-4.554913e-03	4.187893e-03
6.424642857146495e-04	6.556188e+00	1.493925e+01	-4.913099e-03	3.845764e-03	-4.554932e-03	4.187893e-03
6.459785714289372e-04	6.409087e+00	1.493778e+01	-4.918663e-03	3.840887e-03	-4.554951e-03	4.187892e-03
6.494928571432249e-04	6.266377e+00	1.493634e+01	-4.924048e-03	3.836198e-03	-4.554969e-03	4.187892e-03
6.530071428575126e-04	6.128058e+00	1.493495e+01	-4.929252e-03	3.831696e-03	-4.554988e-03	4.187892e-03
6.565214285718003e-04	5.994128e+00	1.493360e+01	-4.934276e-03	3.827381e-03	-4.555005e-03	4.187892e-03
6.600357142860881e-04	5.864589e+00	1.493228e+01	-4.939120e-03	3.823253e-03	-4.555023e-03	4.187892e-03
6.635500000003757e-04	5.739440e+00	1.493101e+01	-4.943783e-03	3.819313e-03	-4.555040e-03	4.187892e-03
6.669642857146633e-04	5.622327e+00	1.492982e+01	-4.948131e-03	3.815675e-03	-4.555056e-03	4.187892e-03
6.703785714289510e-04	5.509787e+00	1.492867e+01	-4.952295e-03	3.812232e-03	-4.555071e-03	4.187891e-03
6.737928571432386e-04	5.401821e+00	1.492757e+01	-4.956273e-03	3.808983e-03	-4.555086e-03	4.187891e-03
6.772071428575264e-04	5.298427e+00	1.492651e+01	-4.960066e-03	3.805927e-03	-4.555100e-03	4.187891e-03
6.806214285718140e-04	5.199607e+00	1.492550e+01	-4.963675e-03	3.803066e-03	-4.555114e-03	4.187891e-03
6.840357142861017e-04	5.105360e+00	1.492453e+01	-4.967098e-03	3.800399e-03	-4.555127e-03	4.187891e-03
6.874500000003893e-04	5.015686e+00	1.492360e+01	-4.970336e-03	3.797925e-03	-4.555139e-03	4.187891e-03
6.906500000003911e-04	4.936004e+00	1.492278e+01	-4.973197e-03	3.795793e-03	-4.555150e-03	4.187891e-03
6.938500000003929e-04	4.860610e+00	1.492200e+01	-4.975886e-03	3.793839e-03	-4.555160e-03	4.187891e-03
